;$FILEVERSION=1.3
;$STARTTIME=45656.7635187285778
;
;   Start time: 2024-12-30 18:19:28.018.1
;   Generated by PCAN-Explorer v6.8.0.2882
;-------------------------------------------------------------------------------
;   Bus  Connection   Net Connection    Protocol  Bit rate
;   1    Connection1  500kbps@pcan_usb  CAN       500 kbit/s
;-------------------------------------------------------------------------------
;   Message   Time    Bus  Type   ID    Reserved
;   Number    Offset  |    |      [hex] |   Data Length Code
;   |         [ms]    |    |      |     |   |    Data [hex] ...
;   |         |       |    |      |     |   |    |
;---+-- ------+------ +- --+-- ---+---- +- -+-- -+ -- -- -- -- -- -- --
     1)         0.100 1  Rx        0462 -  8    02 0E EF 0D FC 0D 13 00
     2)         5.348 1  Rx        0611 -  8    77 17 00 00 00 00 00 00
     3)         5.988 1  Rx        0471 -  8    18 18 01 02 73 03 E8 03
     4)         6.201 1  Rx        03C2 -  8    80 00 00 01 C8 CA B5 16
     5)         6.884 1  Rx        0445 -  8    91 21 0B 01 18 14 15 04
     6)         8.334 1  Rx        0612 -  8    02 00 06 00 00 00 00 00
     7)         8.932 1  Rx        0463 -  8    BE 00 AA 00 B1 00 14 00
     8)        11.321 1  Rx        0614 -  8    00 00 FF FF 00 00 00 00
     9)        13.924 1  Rx        0464 -  8    00 00 40 00 00 00 00 00
    10)        14.180 1  Rx        0472 -  8    02 0E ED 0D F6 0D 15 00
    11)        14.393 1  Rx        0613 -  8    30 75 50 C3 30 75 50 C3
    12)        15.332 1  Rx        0611 -  8    78 17 00 00 00 00 00 00
    13)        16.100 1  Rx        03C2 -  8    80 00 00 00 C8 CA B5 16
    14)        17.337 1  Rx        0615 -  8    03 0E F1 0D F8 0D 11 00
    15)        20.324 1  Rx        0616 -  8    D2 00 AA 00 BE 00 28 00
    16)        20.921 1  Rx        0465 -  8    91 21 0A 01 18 11 1D 04
    17)        22.969 1  Rx        0473 -  8    BE 00 AF 00 B4 00 0F 00
    18)        23.182 1  Rx        0431 -  8    18 18 01 02 73 03 E8 03
    19)        23.438 1  Rx        0617 -  8    0A 05 CC 01 CC 01 4A 06
    20)        25.358 1  Rx        0611 -  8    78 17 00 00 00 00 00 00
    21)        26.126 1  Rx        03C2 -  8    7F FF FF FF C8 CA B5 16
    22)        26.510 1  Rx        0421 -  8    18 18 01 02 73 03 E8 03
    23)        27.961 1  Rx        0474 -  8    00 00 80 00 00 00 00 00
    24)        31.075 1  Rx        0432 -  8    F6 0D F0 0D F2 0D 06 00
    25)        34.489 1  Rx        0422 -  8    F9 0D ED 0D F3 0D 0C 00
    26)        34.958 1  Rx        0475 -  8    83 21 13 02 18 08 1D 04
    27)        35.342 1  Rx        0611 -  8    78 17 00 00 00 00 00 00
    28)        36.067 1  Rx        03C2 -  8    80 00 00 00 C8 CA B5 16
    29)        40.078 1  Rx        0433 -  8    BE 00 AC 00 B6 00 12 00
    30)        43.491 1  Rx        0423 -  8    BE 00 B0 00 B4 00 0E 00
    31)        45.070 1  Rx        0434 -  8    00 00 08 00 00 00 00 00
    32)        45.369 1  Rx        0611 -  8    78 17 00 00 00 00 00 00
    33)        46.094 1  Rx        03C2 -  8    7F FF FF FF C8 CA B5 16
    34)        48.526 1  Rx        0424 -  8    00 00 04 00 00 00 00 00
    35)        51.896 1  Rx        0451 -  8    18 18 01 02 73 03 E8 03
    36)        52.110 1  Rx        0435 -  8    7A 21 09 0A 18 08 15 04
    37)        55.395 1  Rx        0611 -  8    78 17 00 00 00 00 00 00
    38)        55.608 1  Rx        0425 -  8    7B 21 18 0E 18 05 1D 04
    39)        56.078 1  Rx        03C2 -  8    80 00 00 00 C8 CA B5 16
    40)        59.875 1  Rx        0452 -  8    03 0E F1 0D FD 0D 12 00
    41)        61.624 1  Rx        0411 -  8    18 18 01 02 73 03 E8 03
    42)        65.379 1  Rx        0611 -  8    78 17 00 00 00 00 00 00
    43)        66.062 1  Rx        03C2 -  8    7F FF FF FB C8 CA B5 16
    44)        68.878 1  Rx        0453 -  8    BE 00 AA 00 B1 00 14 00
    45)        69.646 1  Rx        0412 -  8    01 0E F2 0D F7 0D 0F 00
    46)        73.912 1  Rx        0454 -  8    00 00 20 00 00 00 20 00
    47)        75.405 1  Rx        0611 -  8    78 17 00 00 00 00 00 00
    48)        76.088 1  Rx        03C2 -  8    7F FF FF FE C8 CA B5 16
    49)        77.923 1  Rx        0441 -  8    18 18 01 02 73 03 E8 03
    50)        78.648 1  Rx        0413 -  8    D2 00 B4 00 BA 00 1E 00
    51)        80.867 1  Rx        0455 -  8    92 21 09 01 18 11 3D 04
    52)        83.683 1  Rx        0414 -  8    00 00 02 00 00 00 00 00
    53)        85.389 1  Rx        0611 -  8    78 17 00 00 00 00 00 00
    54)        85.944 1  Rx        0442 -  8    01 0E F1 0D FC 0D 10 00
    55)        86.157 1  Rx        03C2 -  8    7F FF FF FF C8 CA B5 16
    56)        90.637 1  Rx        0415 -  8    85 21 09 16 16 15 15 04
    57)        91.960 1  Rx        0461 -  8    18 18 01 02 73 03 E8 03
    58)        94.946 1  Rx        0443 -  8    BE 00 AA 00 AF 00 14 00
    59)        95.416 1  Rx        0611 -  8    78 17 00 00 00 00 00 00
    60)        96.056 1  Rx        03C2 -  8    80 00 00 01 C8 CA B5 16
    61)        99.938 1  Rx        0444 -  8    00 00 10 00 00 00 00 00
    62)       100.194 1  Rx        0462 -  8    02 0E EF 0D FC 0D 13 00
    63)       105.442 1  Rx        0611 -  8    78 17 00 00 00 00 00 00
    64)       105.954 1  Rx        0471 -  8    18 18 01 02 73 03 E8 03
    65)       106.168 1  Rx        03C2 -  8    80 00 00 01 C8 CA B5 16
    66)       106.936 1  Rx        0445 -  8    91 21 0B 01 18 14 1D 04
    67)       108.513 1  Tx        0700 -  8    01 00 00 00 A0 0F F1 00
    68)       108.543 1  Rx        0612 -  8    02 00 06 00 00 00 00 00
    69)       109.240 1  Rx        0463 -  8    BE 00 AA 00 B1 00 14 00
    70)       111.458 1  Rx        0614 -  8    00 00 FF FF 00 00 00 00
    71)       113.933 1  Rx        0472 -  8    02 0E ED 0D F6 0D 15 00
    72)       114.189 1  Rx        0464 -  8    00 00 40 00 00 00 00 00
    73)       114.445 1  Rx        0613 -  8    30 75 50 C3 30 75 50 C3
    74)       115.426 1  Rx        0611 -  8    78 17 00 00 00 00 00 00
    75)       116.023 1  Rx        03C2 -  8    80 00 00 02 C8 CA B5 16
    76)       117.431 1  Rx        0615 -  8    03 0E F2 0D F8 0D 10 00
    77)       120.418 1  Rx        0616 -  8    D2 00 AA 00 BE 00 28 00
    78)       120.973 1  Rx        0465 -  8    91 21 0A 01 18 11 1D 04
    79)       122.935 1  Rx        0473 -  8    BE 00 AF 00 B4 00 0F 00
    80)       123.149 1  Rx        0431 -  8    18 18 01 02 73 03 E8 03
    81)       123.447 1  Rx        0617 -  8    0A 05 CC 01 CC 01 4A 06
    82)       125.453 1  Rx        0611 -  8    78 17 00 00 00 00 00 00
    83)       126.050 1  Rx        03C2 -  8    80 00 00 00 C8 CA B5 16
    84)       126.434 1  Rx        0421 -  8    18 18 01 02 73 03 E8 03
    85)       127.927 1  Rx        0474 -  8    00 00 80 00 00 00 00 00
    86)       131.085 1  Rx        0432 -  8    F6 0D F0 0D F2 0D 06 00
    87)       134.455 1  Rx        0422 -  8    F9 0D ED 0D F3 0D 0C 00
    88)       134.925 1  Rx        0475 -  8    83 21 13 02 18 08 1D 04
    89)       135.437 1  Rx        0611 -  8    78 17 00 00 00 00 00 00
    90)       136.119 1  Rx        03C2 -  8    7F FF FF FE C8 CA B5 16
    91)       140.087 1  Rx        0433 -  8    BE 00 AC 00 B6 00 12 00
    92)       143.458 1  Rx        0423 -  8    BE 00 B0 00 B4 00 0E 00
    93)       145.122 1  Rx        0434 -  8    00 00 08 00 00 00 00 00
    94)       145.463 1  Rx        0611 -  8    78 17 00 00 00 00 00 00
    95)       146.018 1  Rx        03C2 -  8    80 00 00 00 C8 CA B5 16
    96)       148.450 1  Rx        0424 -  8    00 00 04 00 00 00 00 00
    97)       151.820 1  Rx        0451 -  8    18 18 01 02 73 03 E8 03
    98)       152.076 1  Rx        0435 -  8    7A 21 09 0A 18 08 15 04
    99)       155.404 1  Rx        0425 -  8    7B 21 18 0E 18 05 1D 04
   100)       155.660 1  Rx        0611 -  8    78 17 00 00 00 00 00 00
   101)       156.087 1  Rx        03C2 -  8    80 00 00 02 C8 CA B5 16
   102)       159.841 1  Rx        0452 -  8    03 0E F1 0D FD 0D 12 00
   103)       161.719 1  Rx        0411 -  8    18 18 01 02 73 03 E8 03
   104)       165.473 1  Rx        0611 -  8    78 17 00 00 00 00 00 00
   105)       166.028 1  Rx        03C2 -  8    80 00 00 00 C8 CA B5 16
   106)       168.844 1  Rx        0453 -  8    BE 00 AA 00 B1 00 14 00
   107)       169.740 1  Rx        0412 -  8    01 0E F2 0D F7 0D 0F 00
   108)       173.836 1  Rx        0454 -  8    00 00 20 00 00 00 20 00
   109)       175.500 1  Rx        0611 -  8    78 17 00 00 00 00 00 00
   110)       176.055 1  Rx        03C2 -  8    7F FF FF FE C8 CA B5 16
   111)       178.017 1  Rx        0441 -  8    18 18 01 02 73 03 E8 03
   112)       178.742 1  Rx        0413 -  8    D2 00 B4 00 BA 00 1E 00
   113)       180.833 1  Rx        0455 -  8    92 21 09 01 18 11 35 04
   114)       183.777 1  Rx        0414 -  8    00 00 02 00 00 00 00 00
   115)       185.526 1  Rx        0611 -  8    78 17 00 00 00 00 00 00
   116)       185.996 1  Rx        0442 -  8    01 0E F1 0D FC 0D 10 00
   117)       186.252 1  Rx        03C2 -  8    80 00 00 00 C8 CA B5 16
   118)       190.732 1  Rx        0415 -  8    85 21 09 16 16 15 15 04
   119)       192.054 1  Rx        0461 -  8    18 18 01 02 73 03 E8 03
   120)       194.998 1  Rx        0443 -  8    BE 00 AA 00 AF 00 14 00
   121)       195.510 1  Rx        0611 -  8    78 17 00 00 00 00 00 00
   122)       196.022 1  Rx        03C2 -  8    7F FF FF FF C8 CA B5 16
   123)       200.033 1  Rx        0444 -  8    00 00 10 00 00 00 00 00
   124)       200.246 1  Rx        0462 -  8    02 0E EF 0D FC 0D 13 00
   125)       205.537 1  Rx        0611 -  8    78 17 00 00 00 00 00 00
   126)       205.878 1  Rx        0471 -  8    18 18 01 02 73 03 E8 03
   127)       206.134 1  Rx        03C2 -  8    80 00 00 00 C8 CA B5 16
   128)       206.987 1  Rx        0445 -  8    91 21 0B 01 18 14 1D 04
   129)       209.045 1  Tx        0700 -  8    01 00 00 00 A0 0F F1 00
   130)       209.075 1  Rx        0612 -  8    02 00 06 00 00 00 00 00
   131)       209.078 1  Rx        0463 -  8    BE 00 AA 00 B1 00 14 00
   132)       211.553 1  Rx        0614 -  8    00 00 FF FF 00 00 00 00
   133)       213.899 1  Rx        0472 -  8    02 0E ED 0D F6 0D 15 00
   134)       214.155 1  Rx        0464 -  8    00 00 40 00 00 00 00 00
   135)       214.539 1  Rx        0613 -  8    30 75 50 C3 30 75 50 C3
   136)       215.521 1  Rx        0611 -  8    78 17 00 00 00 00 00 00
   137)       215.990 1  Rx        03C2 -  8    80 00 00 00 C8 CA B5 16
   138)       217.526 1  Rx        0615 -  8    03 0E F2 0D F8 0D 10 00
   139)       220.513 1  Rx        0616 -  8    D2 00 AA 00 BE 00 28 00
   140)       221.067 1  Rx        0465 -  8    91 21 0A 01 18 11 1D 04
   141)       222.902 1  Rx        0473 -  8    BE 00 AF 00 B4 00 0F 00
   142)       223.115 1  Rx        0431 -  8    18 18 01 02 73 03 E8 03
   143)       223.542 1  Rx        0617 -  8    0A 05 CC 01 CC 01 4A 06
   144)       225.547 1  Rx        0611 -  8    78 17 00 00 00 00 00 00
   145)       226.016 1  Rx        03C2 -  8    80 00 00 00 C8 CA B5 16
   146)       226.400 1  Rx        0421 -  8    18 18 01 02 73 03 E8 03
   147)       227.894 1  Rx        0474 -  8    00 00 80 00 00 00 00 00
   148)       231.094 1  Rx        0432 -  8    F6 0D F0 0D F2 0D 06 00
   149)       234.379 1  Rx        0422 -  8    F9 0D ED 0D F3 0D 0C 00
   150)       234.891 1  Rx        0475 -  8    83 21 13 02 18 08 1D 04
   151)       235.574 1  Rx        0611 -  8    78 17 00 00 00 00 00 00
   152)       236.000 1  Rx        03C2 -  8    80 00 00 01 C8 CA B5 16
   153)       240.139 1  Rx        0433 -  8    BE 00 AC 00 B6 00 12 00
   154)       243.381 1  Rx        0423 -  8    BE 00 B0 00 B4 00 0E 00
   155)       245.131 1  Rx        0434 -  8    00 00 08 00 00 00 00 00
   156)       245.557 1  Rx        0611 -  8    78 17 00 00 00 00 00 00
   157)       245.984 1  Rx        03C2 -  8    80 00 00 00 C8 CA B5 16
   158)       248.373 1  Rx        0424 -  8    00 00 04 00 00 00 00 00
   159)       251.787 1  Rx        0451 -  8    18 18 01 02 73 03 E8 03
   160)       252.085 1  Rx        0435 -  8    7A 21 09 0A 18 08 1D 04
   161)       255.371 1  Rx        0425 -  8    7B 21 18 0E 18 05 1D 04
   162)       255.627 1  Rx        0611 -  8    78 17 00 00 00 00 00 00
   163)       255.968 1  Rx        03C2 -  8    80 00 00 00 C8 CA B5 16
   164)       259.765 1  Rx        0452 -  8    03 0E F1 0D FD 0D 12 00
   165)       261.813 1  Rx        0411 -  8    18 18 01 02 73 03 E8 03
   166)       265.568 1  Rx        0611 -  8    78 17 00 00 00 00 00 00
   167)       266.080 1  Rx        03C2 -  8    80 00 00 01 C8 CA B5 16
   168)       268.768 1  Rx        0453 -  8    BE 00 AA 00 B1 00 14 00
   169)       269.834 1  Rx        0412 -  8    01 0E F2 0D F7 0D 0F 00
   170)       273.802 1  Rx        0454 -  8    00 00 20 00 00 00 20 00
   171)       275.594 1  Rx        0611 -  8    78 17 00 00 00 00 00 00
   172)       275.978 1  Rx        03C2 -  8    7F FF FF FD C8 CA B5 16
   173)       278.069 1  Rx        0441 -  8    18 18 01 02 73 03 E8 03
   174)       278.837 1  Rx        0413 -  8    D2 00 B4 00 BA 00 1E 00
   175)       280.757 1  Rx        0455 -  8    93 21 09 01 18 11 35 04
   176)       283.872 1  Rx        0414 -  8    00 00 02 00 00 00 00 00
   177)       285.621 1  Rx        0611 -  8    78 17 00 00 00 00 00 00
   178)       286.005 1  Rx        03C2 -  8    80 00 00 01 C8 CA B5 16
   179)       286.261 1  Rx        0442 -  8    01 0E F1 0D FC 0D 10 00
   180)       290.826 1  Rx        0415 -  8    85 21 09 16 16 15 1D 04
   181)       292.149 1  Rx        0461 -  8    18 18 01 02 73 03 E8 03
   182)       295.093 1  Rx        0443 -  8    BE 00 AA 00 AF 00 14 00
   183)       295.605 1  Rx        0611 -  8    78 17 00 00 00 00 00 00
   184)       295.946 1  Rx        03C2 -  8    80 00 00 00 C8 CA B5 16
   185)       300.085 1  Rx        0444 -  8    00 00 10 00 00 00 00 00
   186)       300.298 1  Rx        0462 -  8    02 0E EF 0D FC 0D 13 00
   187)       305.631 1  Rx        0611 -  8    78 17 00 00 00 00 00 00
   188)       305.845 1  Rx        0471 -  8    18 18 01 02 73 03 E8 03
   189)       306.101 1  Rx        03C2 -  8    80 00 00 01 C8 CA B5 16
   190)       307.082 1  Rx        0445 -  8    91 21 0B 01 18 14 1D 04
   191)       308.572 1  Tx        0700 -  8    01 00 00 00 A0 0F F1 00
   192)       308.618 1  Rx        0612 -  8    02 00 06 00 00 00 00 00
   193)       309.215 1  Rx        0463 -  8    BE 00 AA 00 B1 00 14 00
   194)       311.657 1  Rx        0614 -  8    00 00 FF FF 00 00 00 00
   195)       313.876 1  Rx        0472 -  8    02 0E ED 0D F6 0D 15 00
   196)       314.174 1  Rx        0464 -  8    00 00 40 00 00 00 00 00
   197)       314.601 1  Rx        0613 -  8    30 75 50 C3 30 75 50 C3
   198)       315.625 1  Rx        0611 -  8    78 17 00 00 00 00 00 00
   199)       315.966 1  Rx        03C2 -  8    80 00 00 01 C8 CA B5 16
   200)       317.630 1  Rx        0615 -  8    03 0E F2 0D F8 0D 10 00
   201)       320.617 1  Rx        0616 -  8    D2 00 AA 00 BE 00 28 00
   202)       321.172 1  Rx        0465 -  8    91 21 0A 01 18 11 1D 04
   203)       322.878 1  Rx        0473 -  8    BE 00 AF 00 B4 00 0F 00
   204)       323.134 1  Rx        0431 -  8    18 18 01 02 73 03 E8 03
   205)       323.646 1  Rx        0617 -  8    0A 05 CC 01 CC 01 4A 06
   206)       325.652 1  Rx        0611 -  8    78 17 00 00 00 00 00 00
   207)       325.950 1  Rx        03C2 -  8    7F FF FF FF C8 CA B5 16
   208)       326.334 1  Rx        0421 -  8    18 18 01 02 73 03 E8 03
   209)       327.870 1  Rx        0474 -  8    00 00 80 00 00 00 00 00
   210)       331.155 1  Rx        0432 -  8    F6 0D F0 0D F2 0D 06 00
   211)       334.355 1  Rx        0422 -  8    F9 0D ED 0D F3 0D 0C 00
   212)       334.867 1  Rx        0475 -  8    83 21 13 02 18 08 15 04
   213)       335.635 1  Rx        0611 -  8    78 17 00 00 00 00 00 00
   214)       335.977 1  Rx        03C2 -  8    80 00 00 00 C8 CA B5 16
   215)       340.158 1  Rx        0433 -  8    BE 00 AC 00 B6 00 12 00
   216)       343.315 1  Rx        0423 -  8    BE 00 B0 00 B4 00 0E 00
   217)       345.150 1  Rx        0434 -  8    00 00 08 00 00 00 00 00
   218)       345.662 1  Rx        0611 -  8    78 17 00 00 00 00 00 00
   219)       345.961 1  Rx        03C2 -  8    80 00 00 00 C8 CA B5 16
   220)       348.350 1  Rx        0424 -  8    00 00 04 00 00 00 00 00
   221)       351.763 1  Rx        0451 -  8    18 18 01 02 73 03 E8 03
   222)       352.147 1  Rx        0435 -  8    7A 21 09 0A 18 08 1D 04
   223)       355.304 1  Rx        0425 -  8    7B 21 18 0E 18 05 1D 04
   224)       355.688 1  Rx        0611 -  8    78 17 00 00 00 00 00 00
   225)       355.987 1  Rx        03C2 -  8    80 00 00 01 C8 CA B5 16
   226)       359.742 1  Rx        0452 -  8    03 0E F1 0D FD 0D 12 00
   227)       361.918 1  Rx        0411 -  8    18 18 01 02 73 03 E8 03
   228)       365.672 1  Rx        0611 -  8    78 17 00 00 00 00 00 00
   229)       365.928 1  Rx        03C2 -  8    80 00 00 00 C8 CA B5 16
   230)       368.744 1  Rx        0453 -  8    BE 00 AA 00 B1 00 14 00
   231)       369.939 1  Rx        0412 -  8    01 0E F2 0D F7 0D 0F 00
   232)       373.736 1  Rx        0454 -  8    00 00 20 00 00 00 20 00
   233)       375.699 1  Rx        0611 -  8    78 17 00 00 00 00 00 00
   234)       375.955 1  Rx        03C2 -  8    7F FF FF FE C8 CA B5 16
   235)       378.131 1  Rx        0441 -  8    18 18 01 02 73 03 E8 03
   236)       378.941 1  Rx        0413 -  8    D2 00 B4 00 BA 00 1E 00
   237)       380.733 1  Rx        0455 -  8    92 21 09 01 18 11 35 04
   238)       383.976 1  Rx        0414 -  8    00 00 02 00 00 00 00 00
   239)       385.683 1  Rx        0611 -  8    78 17 00 00 00 00 00 00
   240)       385.939 1  Rx        03C2 -  8    80 00 00 02 C8 CA B5 16
   241)       386.195 1  Rx        0442 -  8    01 0E F1 0D FC 0D 10 00
   242)       390.931 1  Rx        0415 -  8    85 21 09 16 16 15 1D 04
   243)       392.210 1  Rx        0461 -  8    18 18 01 02 73 03 E8 03
   244)       395.154 1  Rx        0443 -  8    BE 00 AA 00 AF 00 14 00
   245)       395.709 1  Rx        0611 -  8    78 17 00 00 00 00 00 00
   246)       396.008 1  Rx        03C2 -  8    80 00 00 00 C8 CA B5 16
   247)       400.146 1  Rx        0444 -  8    00 00 10 00 00 00 00 00
   248)       400.402 1  Rx        0462 -  8    02 0E EF 0D FC 0D 13 00
   249)       405.736 1  Rx        0611 -  8    78 17 00 00 00 00 00 00
   250)       405.949 1  Rx        03C2 -  8    80 00 00 00 C8 CA B5 16
   251)       406.205 1  Rx        0471 -  8    18 18 01 02 73 03 E8 03
   252)       407.144 1  Rx        0445 -  8    91 21 0B 01 18 14 1D 04
   253)       408.605 1  Tx        0700 -  8    01 00 00 00 A0 0F F1 00
   254)       408.722 1  Rx        0612 -  8    02 00 06 00 00 00 00 00
   255)       409.277 1  Rx        0463 -  8    BE 00 AA 00 B1 00 14 00
   256)       411.709 1  Rx        0614 -  8    00 00 FF FF 00 00 00 00
   257)       413.842 1  Rx        0472 -  8    02 0E ED 0D F6 0D 15 00
   258)       414.226 1  Rx        0464 -  8    00 00 40 00 00 00 00 00
   259)       414.695 1  Rx        0613 -  8    30 75 50 C3 30 75 50 C3
   260)       415.719 1  Rx        0611 -  8    78 17 00 00 00 00 00 00
   261)       415.975 1  Rx        03C2 -  8    80 00 00 00 C8 CA B5 16
   262)       417.725 1  Rx        0615 -  8    03 0E F2 0D F8 0D 10 00
   263)       420.711 1  Rx        0616 -  8    D2 00 AA 00 BE 00 28 00
   264)       421.223 1  Rx        0465 -  8    91 21 0A 01 18 11 15 04
   265)       422.802 1  Rx        0473 -  8    BE 00 AF 00 B4 00 0F 00
   266)       423.143 1  Rx        0431 -  8    18 18 01 02 73 03 E8 03
   267)       423.698 1  Rx        0617 -  8    0A 05 CC 01 CC 01 4A 06
   268)       425.746 1  Rx        0611 -  8    78 17 00 00 00 00 00 00
   269)       425.959 1  Rx        03C2 -  8    80 00 00 00 C8 CA B5 16
   270)       426.301 1  Rx        0421 -  8    18 18 01 02 73 03 E8 03
   271)       427.837 1  Rx        0474 -  8    00 00 80 00 00 00 00 00
   272)       431.165 1  Rx        0432 -  8    F6 0D F0 0D F2 0D 06 00
   273)       434.279 1  Rx        0422 -  8    F9 0D ED 0D F3 0D 0C 00
   274)       434.791 1  Rx        0475 -  8    83 21 13 02 18 08 15 04
   275)       435.730 1  Rx        0611 -  8    78 17 00 00 00 00 00 00
   276)       435.986 1  Rx        03C2 -  8    80 00 00 01 C8 CA B5 16
   277)       440.167 1  Rx        0433 -  8    BE 00 AC 00 B6 00 12 00
   278)       443.282 1  Rx        0423 -  8    BE 00 B0 00 B4 00 0E 00
   279)       445.202 1  Rx        0434 -  8    00 00 08 00 00 00 00 00
   280)       445.756 1  Rx        0611 -  8    78 17 00 00 00 00 00 00
   281)       445.970 1  Rx        03C2 -  8    80 00 00 02 C8 CA B5 16
   282)       448.274 1  Rx        0424 -  8    00 00 04 00 00 00 00 00
   283)       451.687 1  Rx        0451 -  8    18 18 01 02 73 03 E8 03
   284)       452.156 1  Rx        0435 -  8    7A 21 09 0A 18 08 1D 04
   285)       455.271 1  Rx        0425 -  8    7B 21 18 0E 18 05 15 04
   286)       455.783 1  Rx        0611 -  8    78 17 00 00 00 00 00 00
   287)       455.996 1  Rx        03C2 -  8    7F FF FF FE C8 CA B5 16
   288)       459.665 1  Rx        0452 -  8    03 0E F0 0D FD 0D 13 00
   289)       462.055 1  Rx        0411 -  8    18 18 01 02 73 03 E8 03
   290)       465.767 1  Rx        0611 -  8    78 17 00 00 00 00 00 00
   291)       466.023 1  Rx        03C2 -  8    80 00 00 01 C8 CA B5 16
   292)       468.668 1  Rx        0453 -  8    BE 00 AA 00 B1 00 14 00
   293)       470.033 1  Rx        0412 -  8    01 0E F2 0D F7 0D 0F 00
   294)       473.703 1  Rx        0454 -  8    00 00 20 00 00 00 20 00
   295)       475.793 1  Rx        0611 -  8    78 17 00 00 00 00 00 00
   296)       476.007 1  Rx        03C2 -  8    80 00 00 04 C8 CA B5 16
   297)       478.225 1  Rx        0441 -  8    18 18 01 02 73 03 E8 03
   298)       479.036 1  Rx        0413 -  8    D2 00 B4 00 BA 00 1E 00
   299)       480.657 1  Rx        0455 -  8    93 21 09 01 18 11 35 04
   300)       484.070 1  Rx        0414 -  8    00 00 02 00 00 00 00 00
   301)       485.777 1  Rx        0611 -  8    78 17 00 00 00 00 00 00
   302)       486.033 1  Rx        03C2 -  8    80 00 00 00 C8 CA B5 16
   303)       486.246 1  Rx        0442 -  8    01 0E F1 0D FC 0D 10 00
   304)       491.068 1  Rx        0415 -  8    85 21 09 16 16 15 1D 04
   305)       492.305 1  Rx        0461 -  8    18 18 01 02 73 03 E8 03
   306)       495.206 1  Rx        0443 -  8    BE 00 AA 00 AF 00 14 00
   307)       495.804 1  Rx        0611 -  8    78 17 00 00 00 00 00 00
   308)       496.017 1  Rx        03C2 -  8    80 00 00 03 C8 CA B5 16
   309)       500.241 1  Rx        0444 -  8    00 00 10 00 00 00 00 00
   310)       500.454 1  Rx        0462 -  8    02 0E EF 0D FC 0D 13 00
   311)       505.787 1  Rx        0471 -  8    18 18 01 02 73 03 E8 03
   312)       506.043 1  Rx        03C2 -  8    80 00 00 00 C8 CA B5 16
   313)       506.299 1  Rx        0611 -  8    78 17 00 00 00 00 00 00
   314)       507.238 1  Rx        0445 -  8    91 21 0B 01 18 14 1D 04
   315)       509.634 1  Tx        0700 -  8    01 00 00 00 A0 0F F1 00
   316)       509.664 1  Rx        0612 -  8    02 00 06 00 00 00 00 00
   317)       509.694 1  Rx        0463 -  8    BE 00 AA 00 B1 00 14 00
   318)       511.803 1  Rx        0614 -  8    00 00 FF FF 00 00 00 00
   319)       513.809 1  Rx        0472 -  8    02 0E ED 0D F6 0D 15 00
   320)       514.321 1  Rx        0464 -  8    00 00 40 00 00 00 00 00
   321)       514.790 1  Rx        0613 -  8    30 75 50 C3 30 75 50 C3
   322)       515.814 1  Rx        0611 -  8    78 17 00 00 00 00 00 00
   323)       516.070 1  Rx        03C2 -  8    80 00 00 01 C8 CA B5 16
   324)       517.819 1  Rx        0615 -  8    03 0E F2 0D F8 0D 10 00
   325)       520.806 1  Rx        0616 -  8    D2 00 AA 00 BE 00 28 00
   326)       521.318 1  Rx        0465 -  8    91 21 0A 01 18 11 15 04
   327)       522.811 1  Rx        0473 -  8    BE 00 AF 00 B4 00 0F 00
   328)       523.195 1  Rx        0431 -  8    18 18 01 02 73 03 E8 03
   329)       523.835 1  Rx        0617 -  8    0A 05 CC 01 CC 01 4A 06
   330)       525.840 1  Rx        0611 -  8    78 17 00 00 00 00 00 00
   331)       526.054 1  Rx        03C2 -  8    80 00 00 01 C8 CA B5 16
   332)       526.310 1  Rx        0421 -  8    18 18 01 02 73 03 E8 03
   333)       527.803 1  Rx        0474 -  8    00 00 80 00 00 00 00 00
   334)       531.174 1  Rx        0432 -  8    F6 0D F0 0D F2 0D 06 00
   335)       534.246 1  Rx        0422 -  8    F9 0D ED 0D F3 0D 0C 00
   336)       534.800 1  Rx        0475 -  8    83 21 13 02 18 08 15 04
   337)       535.824 1  Rx        0611 -  8    78 17 00 00 00 00 00 00
   338)       536.080 1  Rx        03C2 -  8    80 00 00 01 C8 CA B5 16
   339)       540.176 1  Rx        0433 -  8    BE 00 AC 00 B6 00 12 00
   340)       543.248 1  Rx        0423 -  8    BE 00 B0 00 B4 00 0E 00
   341)       545.211 1  Rx        0434 -  8    00 00 08 00 00 00 00 00
   342)       545.851 1  Rx        0611 -  8    78 17 00 00 00 00 00 00
   343)       546.064 1  Rx        03C2 -  8    80 00 00 00 C8 CA B5 16
   344)       548.240 1  Rx        0424 -  8    00 00 04 00 00 00 00 00
   345)       551.653 1  Rx        0451 -  8    18 18 01 02 73 03 E8 03
   346)       552.165 1  Rx        0435 -  8    7A 21 09 0A 18 08 1D 04
   347)       555.195 1  Rx        0425 -  8    7B 21 18 0E 18 05 15 04
   348)       555.877 1  Rx        0611 -  8    78 17 00 00 00 00 00 00
   349)       556.091 1  Rx        03C2 -  8    80 00 00 02 C8 CA B5 16
   350)       559.632 1  Rx        0452 -  8    03 0E F1 0D FD 0D 12 00
   351)       562.149 1  Rx        0411 -  8    18 18 01 02 73 03 E8 03
   352)       565.861 1  Rx        0611 -  8    78 17 00 00 00 00 00 00
   353)       566.117 1  Rx        03C2 -  8    80 00 00 01 C8 CA B5 16
   354)       568.634 1  Rx        0453 -  8    BE 00 AA 00 B1 00 14 00
   355)       570.128 1  Rx        0412 -  8    01 0E F2 0D F7 0D 0F 00
   356)       573.626 1  Rx        0454 -  8    00 00 20 00 00 00 20 00
   357)       575.845 1  Rx        03C2 -  8    80 00 00 04 C8 CA B5 16
   358)       576.101 1  Rx        0611 -  8    78 17 00 00 00 00 00 00
   359)       578.277 1  Rx        0441 -  8    18 18 01 02 73 03 E8 03
   360)       579.173 1  Rx        0413 -  8    D2 00 B4 00 BA 00 1E 00
   361)       580.624 1  Rx        0455 -  8    93 21 09 01 18 11 35 04
   362)       584.165 1  Rx        0414 -  8    00 00 02 00 00 00 00 00
   363)       585.871 1  Rx        03C2 -  8    7F FF FF FE C8 CA B5 16
   364)       586.127 1  Rx        0611 -  8    78 17 00 00 00 00 00 00
   365)       586.341 1  Rx        0442 -  8    01 0E F1 0D FC 0D 10 00
   366)       591.162 1  Rx        0415 -  8    85 21 09 16 16 15 1D 04
   367)       592.399 1  Rx        0461 -  8    18 18 01 02 73 03 E8 03
   368)       595.301 1  Rx        0443 -  8    BE 00 AA 00 AF 00 14 00
   369)       595.855 1  Rx        03C2 -  8    80 00 00 00 C8 CA B5 16
   370)       596.069 1  Rx        0611 -  8    78 17 00 00 00 00 00 00
   371)       600.293 1  Rx        0444 -  8    00 00 10 00 00 00 00 00
   372)       600.549 1  Rx        0462 -  8    02 0E EF 0D FC 0D 13 00
   373)       605.754 1  Rx        0471 -  8    18 18 01 02 73 03 E8 03
   374)       606.010 1  Rx        03C2 -  8    7F FF FF FF C8 CA B5 16
   375)       606.266 1  Rx        0611 -  8    78 17 00 00 00 00 00 00
   376)       607.290 1  Rx        0445 -  8    91 21 0B 01 18 14 15 04
   377)       608.691 1  Tx        0700 -  8    01 00 00 00 A0 0F F1 00
   378)       608.911 1  Rx        0612 -  8    02 00 06 00 00 00 00 00
   379)       609.380 1  Rx        0463 -  8    BE 00 AA 00 B1 00 14 00
   380)       611.898 1  Rx        0614 -  8    00 00 FF FF 00 00 00 00
   381)       613.775 1  Rx        0472 -  8    02 0E ED 0D F6 0D 15 00
   382)       614.415 1  Rx        0464 -  8    00 00 40 00 00 00 00 00
   383)       614.884 1  Rx        0613 -  8    30 75 50 C3 30 75 50 C3
   384)       615.866 1  Rx        03C2 -  8    7F FF FF FF C8 CA B5 16
   385)       616.122 1  Rx        0611 -  8    78 17 00 00 00 00 00 00
   386)       617.914 1  Rx        0615 -  8    03 0E F2 0D F8 0D 10 00
   387)       620.900 1  Rx        0616 -  8    D2 00 AA 00 BE 00 28 00
   388)       621.412 1  Rx        0465 -  8    92 21 0A 01 18 11 15 04
   389)       622.778 1  Rx        0473 -  8    BE 00 AF 00 B4 00 0F 00
   390)       623.204 1  Rx        0431 -  8    18 18 01 02 73 03 E8 03
   391)       623.930 1  Rx        0617 -  8    0A 05 CC 01 CC 01 4A 06
   392)       625.850 1  Rx        03C2 -  8    80 00 00 01 C8 CA B5 16
   393)       626.063 1  Rx        0611 -  8    78 17 00 00 00 00 00 00
   394)       626.319 1  Rx        0421 -  8    18 18 01 02 73 03 E8 03
   395)       627.769 1  Rx        0474 -  8    00 00 80 00 00 00 00 00
   396)       631.225 1  Rx        0432 -  8    F6 0D F0 0D F2 0D 06 00
   397)       634.169 1  Rx        0422 -  8    F8 0D ED 0D F3 0D 0B 00
   398)       634.767 1  Rx        0475 -  8    83 21 13 02 18 08 15 04
   399)       635.833 1  Rx        03C2 -  8    7F FF FF FF C8 CA B5 16
   400)       636.089 1  Rx        0611 -  8    78 17 00 00 00 00 00 00
   401)       640.228 1  Rx        0433 -  8    BE 00 AC 00 B6 00 12 00
   402)       643.172 1  Rx        0423 -  8    BE 00 B0 00 B4 00 0E 00
   403)       645.220 1  Rx        0434 -  8    00 00 08 00 00 00 00 00
   404)       645.860 1  Rx        03C2 -  8    7F FF FF FF C8 CA B5 16
   405)       646.073 1  Rx        0611 -  8    78 17 00 00 00 00 00 00
   406)       648.164 1  Rx        0424 -  8    00 00 04 00 00 00 00 00
   407)       651.577 1  Rx        0451 -  8    18 18 01 02 73 03 E8 03
   408)       652.217 1  Rx        0435 -  8    7A 21 09 0A 18 08 1D 04
   409)       655.161 1  Rx        0425 -  8    7B 21 18 0E 18 05 15 04
   410)       655.929 1  Rx        03C2 -  8    80 00 00 00 C8 CA B5 16
   411)       656.185 1  Rx        0611 -  8    78 17 00 00 00 00 00 00
   412)       659.556 1  Rx        0452 -  8    03 0E F1 0D FD 0D 12 00
   413)       662.244 1  Rx        0411 -  8    18 18 01 02 73 03 E8 03
   414)       665.828 1  Rx        03C2 -  8    80 00 00 02 C8 CA B5 16
   415)       666.041 1  Rx        0611 -  8    78 17 00 00 00 00 00 00
   416)       668.558 1  Rx        0453 -  8    BE 00 AA 00 B1 00 14 00
   417)       670.265 1  Rx        0412 -  8    01 0E F2 0D F7 0D 0F 00
   418)       673.593 1  Rx        0454 -  8    00 00 20 00 00 00 20 00
   419)       675.897 1  Rx        03C2 -  8    80 00 00 00 C8 CA B5 16
   420)       676.110 1  Rx        0611 -  8    78 17 00 00 00 00 00 00
   421)       678.371 1  Rx        0441 -  8    18 18 01 02 73 03 E8 03
   422)       679.267 1  Rx        0413 -  8    D2 00 B4 00 BA 00 1E 00
   423)       680.547 1  Rx        0455 -  8    93 21 09 01 18 11 3D 04
   424)       684.259 1  Rx        0414 -  8    00 00 02 00 00 00 00 00
   425)       685.838 1  Rx        03C2 -  8    80 00 00 01 C8 CA B5 16
   426)       686.051 1  Rx        0611 -  8    78 17 00 00 00 00 00 00
   427)       686.350 1  Rx        0442 -  8    01 0E F1 0D FC 0D 10 00
   428)       691.256 1  Rx        0415 -  8    85 21 09 16 16 15 1D 04
   429)       692.451 1  Rx        0461 -  8    18 18 01 02 73 03 E8 03
   430)       695.352 1  Rx        0443 -  8    BE 00 AA 00 AF 00 14 00
   431)       695.822 1  Rx        03C2 -  8    80 00 00 00 C8 CA B5 16
   432)       696.078 1  Rx        0611 -  8    78 17 00 00 00 00 00 00
   433)       696.334 1  Rx        0610 -  8    02 00 6A 02 2D 00 A8 00
   434)       700.387 1  Rx        0444 -  8    00 00 10 00 00 00 00 00
   435)       700.600 1  Rx        0462 -  8    02 0E EF 0D FC 0D 13 00
   436)       705.720 1  Rx        0471 -  8    18 18 01 02 73 03 E8 03
   437)       705.976 1  Rx        03C2 -  8    80 00 00 01 C8 CA B5 16
   438)       706.190 1  Rx        0611 -  8    78 17 00 00 00 00 00 00
   439)       707.384 1  Rx        0445 -  8    91 21 0B 01 18 14 15 04
   440)       709.006 1  Rx        0612 -  8    02 00 06 00 00 00 00 00
   441)       709.475 1  Rx        0463 -  8    BE 00 AA 00 B1 00 14 00
   442)       710.225 1  Tx        0700 -  8    01 00 00 00 A0 0F F1 00
   443)       712.035 1  Rx        0614 -  8    00 00 FF FF 00 00 00 00
   444)       713.699 1  Rx        0472 -  8    02 0E ED 0D F6 0D 15 00
   445)       714.509 1  Rx        0464 -  8    00 00 40 00 00 00 00 00
   446)       715.021 1  Rx        0613 -  8    30 75 50 C3 30 75 50 C3
   447)       715.832 1  Rx        03C2 -  8    80 00 00 00 C8 CA B5 16
   448)       716.045 1  Rx        0611 -  8    78 17 00 00 00 00 00 00
   449)       718.008 1  Rx        0615 -  8    03 0E F2 0D F8 0D 10 00
   450)       720.995 1  Rx        0616 -  8    D2 00 AA 00 BE 00 28 00
   451)       721.464 1  Rx        0465 -  8    91 21 0A 01 18 11 15 04
   452)       722.701 1  Rx        0473 -  8    BE 00 AF 00 B4 00 0F 00
   453)       723.213 1  Rx        0431 -  8    18 18 01 02 73 03 E8 03
   454)       724.024 1  Rx        0617 -  8    0A 05 CC 01 CC 01 4A 06
   455)       725.773 1  Rx        03C2 -  8    7F FF FF FF C8 CA B5 16
   456)       726.029 1  Rx        0611 -  8    78 17 00 00 00 00 00 00
   457)       726.285 1  Rx        0421 -  8    18 18 01 02 73 03 E8 03
   458)       727.736 1  Rx        0474 -  8    00 00 80 00 00 00 00 00
   459)       731.235 1  Rx        0432 -  8    F6 0D F0 0D F2 0D 06 00
   460)       734.136 1  Rx        0422 -  8    F9 0D ED 0D F3 0D 0C 00
   461)       734.733 1  Rx        0475 -  8    83 21 13 02 18 08 15 04
   462)       735.800 1  Rx        03C2 -  8    7F FF FF FF C8 CA B5 16
   463)       736.013 1  Rx        0611 -  8    78 17 00 00 00 00 00 00
   464)       740.237 1  Rx        0433 -  8    BE 00 AC 00 B6 00 12 00
   465)       743.138 1  Rx        0423 -  8    BE 00 B0 00 B4 00 0E 00
   466)       745.272 1  Rx        0434 -  8    00 00 08 00 00 00 00 00
   467)       745.784 1  Rx        03C2 -  8    80 00 00 00 C8 CA B5 16
   468)       746.040 1  Rx        0611 -  8    78 17 00 00 00 00 00 00
   469)       748.130 1  Rx        0424 -  8    00 00 04 00 00 00 00 00
   470)       751.544 1  Rx        0451 -  8    18 18 01 02 73 03 E8 03
   471)       752.226 1  Rx        0435 -  8    7A 21 09 0A 18 08 15 04
   472)       755.085 1  Rx        0425 -  8    7B 21 18 0E 18 05 15 04
   473)       755.767 1  Rx        03C2 -  8    80 00 00 02 C8 CA B5 16
   474)       756.066 1  Rx        0611 -  8    78 17 00 00 00 00 00 00
   475)       759.522 1  Rx        0452 -  8    03 0E F1 0D FD 0D 12 00
   476)       762.338 1  Rx        0411 -  8    18 18 01 02 73 03 E8 03
   477)       765.879 1  Rx        03C2 -  8    80 00 00 00 C8 CA B5 16
   478)       766.135 1  Rx        0611 -  8    78 17 00 00 00 00 00 00
   479)       768.525 1  Rx        0453 -  8    BE 00 AA 00 B1 00 14 00
   480)       770.359 1  Rx        0412 -  8    01 0E F2 0D F7 0D 0F 00
   481)       773.517 1  Rx        0454 -  8    00 00 20 00 00 00 20 00
   482)       775.778 1  Rx        03C2 -  8    7F FF FF FE C8 CA B5 16
   483)       776.076 1  Rx        0611 -  8    78 17 00 00 00 00 00 00
   484)       778.423 1  Rx        0441 -  8    18 18 01 02 73 03 E8 03
   485)       779.362 1  Rx        0413 -  8    D2 00 B4 00 BA 00 1E 00
   486)       780.514 1  Rx        0455 -  8    93 21 09 01 18 11 3D 04
   487)       784.396 1  Rx        0414 -  8    00 00 02 00 00 00 00 00
   488)       785.847 1  Rx        03C2 -  8    80 00 00 00 C8 CA B5 16
   489)       786.103 1  Rx        0611 -  8    78 17 00 00 00 00 00 00
   490)       786.444 1  Rx        0442 -  8    01 0E F1 0D FC 0D 10 00
   491)       791.351 1  Rx        0415 -  8    85 21 09 16 16 15 15 04
   492)       792.546 1  Rx        0461 -  8    18 18 01 02 73 03 E8 03
   493)       795.447 1  Rx        0443 -  8    BE 00 AA 00 AF 00 14 00
   494)       795.746 1  Rx        03C2 -  8    80 00 00 00 C8 CA B5 16
   495)       796.087 1  Rx        0611 -  8    78 17 00 00 00 00 00 00
   496)       800.439 1  Rx        0444 -  8    00 00 10 00 00 00 00 00
   497)       800.695 1  Rx        0462 -  8    02 0E EF 0D FC 0D 13 00
   498)       805.687 1  Rx        0471 -  8    18 18 01 02 73 03 E8 03
   499)       805.900 1  Rx        03C2 -  8    80 00 00 01 C8 CA B5 16
   500)       806.156 1  Rx        0611 -  8    78 17 00 00 00 00 00 00
   501)       807.436 1  Rx        0445 -  8    91 21 0B 01 18 14 15 04
   502)       809.740 1  Tx        0700 -  8    01 00 00 00 A0 0F F1 00
   503)       809.770 1  Rx        0612 -  8    02 00 06 00 00 00 00 00
   504)       809.800 1  Rx        0463 -  8    BE 00 AA 00 B1 00 14 00
   505)       812.129 1  Rx        0614 -  8    00 00 FF FF 00 00 00 00
   506)       813.665 1  Rx        0472 -  8    02 0E ED 0D F6 0D 15 00
   507)       814.604 1  Rx        0464 -  8    00 00 40 00 00 00 00 00
   508)       815.116 1  Rx        0613 -  8    30 75 50 C3 30 75 50 C3
   509)       815.756 1  Rx        03C2 -  8    7F FF FF FF C8 CA B5 16
   510)       816.097 1  Rx        0611 -  8    78 17 00 00 00 00 00 00
   511)       818.103 1  Rx        0615 -  8    03 0E F2 0D F8 0D 10 00
   512)       821.132 1  Rx        0616 -  8    D2 00 AA 00 BE 00 28 00
   513)       821.558 1  Rx        0465 -  8    92 21 0A 01 18 11 15 04
   514)       822.668 1  Rx        0473 -  8    BE 00 AF 00 B4 00 0F 00
   515)       823.265 1  Rx        0431 -  8    18 18 01 02 73 03 E8 03
   516)       824.118 1  Rx        0617 -  8    0A 05 CC 01 CC 01 4A 06
   517)       825.782 1  Rx        03C2 -  8    80 00 00 00 C8 CA B5 16
   518)       826.081 1  Rx        0421 -  8    18 18 01 02 73 03 E8 03
   519)       826.337 1  Rx        0611 -  8    78 17 00 00 00 00 00 00
   520)       827.702 1  Rx        0474 -  8    00 00 80 00 00 00 00 00
   521)       831.244 1  Rx        0432 -  8    F6 0D F0 0D F2 0D 06 00
   522)       834.060 1  Rx        0422 -  8    F9 0D ED 0D F3 0D 0C 00
   523)       834.657 1  Rx        0475 -  8    83 21 13 02 18 08 1D 04
   524)       835.766 1  Rx        03C2 -  8    80 00 00 00 C8 CA B5 16
   525)       836.150 1  Rx        0611 -  8    78 17 00 00 00 00 00 00
   526)       840.246 1  Rx        0433 -  8    BE 00 AC 00 B6 00 12 00
   527)       843.062 1  Rx        0423 -  8    BE 00 B0 00 B4 00 0E 00
   528)       845.281 1  Rx        0434 -  8    00 00 08 00 00 00 00 00
   529)       845.750 1  Rx        03C2 -  8    80 00 00 00 C8 CA B5 16
   530)       846.134 1  Rx        0611 -  8    78 17 00 00 00 00 00 00
   531)       848.054 1  Rx        0424 -  8    00 00 04 00 00 00 00 00
   532)       851.467 1  Rx        0451 -  8    18 18 01 02 73 03 E8 03
   533)       852.235 1  Rx        0435 -  8    7A 21 09 0A 18 08 15 04
   534)       855.051 1  Rx        0425 -  8    7B 21 18 0E 18 05 15 04
   535)       855.734 1  Rx        03C2 -  8    7F FF FF FE C8 CA B5 16
   536)       856.161 1  Rx        0611 -  8    78 17 00 00 00 00 00 00
   537)       859.489 1  Rx        0452 -  8    03 0E F1 0D FD 0D 12 00
   538)       862.432 1  Rx        0411 -  8    18 18 01 02 73 03 E8 03
   539)       865.718 1  Rx        03C2 -  8    80 00 00 00 C8 CA B5 16
   540)       866.144 1  Rx        0611 -  8    78 17 00 00 00 00 00 00
   541)       868.491 1  Rx        0453 -  8    BE 00 AA 00 B1 00 14 00
   542)       870.454 1  Rx        0412 -  8    01 0E F2 0D F7 0D 0F 00
   543)       873.483 1  Rx        0454 -  8    00 00 20 00 00 00 20 00
   544)       875.744 1  Rx        03C2 -  8    80 00 00 01 C8 CA B5 16
   545)       876.171 1  Rx        0611 -  8    78 17 00 00 00 00 00 00
   546)       878.518 1  Rx        0441 -  8    18 18 01 02 73 03 E8 03
   547)       879.456 1  Rx        0413 -  8    D2 00 B4 00 BA 00 1E 00
   548)       880.480 1  Rx        0455 -  8    93 21 09 01 18 11 3D 04
   549)       884.491 1  Rx        0414 -  8    00 00 02 00 00 00 00 00
   550)       885.728 1  Rx        03C2 -  8    7F FF FF FF C8 CA B5 16
   551)       886.197 1  Rx        0611 -  8    78 17 00 00 00 00 00 00
   552)       886.496 1  Rx        0442 -  8    01 0E F1 0D FC 0D 10 00
   553)       891.445 1  Rx        0415 -  8    85 21 09 16 16 15 15 04
   554)       892.640 1  Rx        0461 -  8    18 18 01 02 73 03 E8 03
   555)       895.541 1  Rx        0443 -  8    BE 00 AA 00 AF 00 14 00
   556)       895.755 1  Rx        03C2 -  8    80 00 00 00 C8 CA B5 16
   557)       896.181 1  Rx        0611 -  8    78 17 00 00 00 00 00 00
   558)       900.533 1  Rx        0444 -  8    00 00 10 00 00 00 00 00
   559)       900.789 1  Rx        0462 -  8    02 0E EF 0D FC 0D 13 00
   560)       905.653 1  Rx        0471 -  8    18 18 01 02 73 03 E8 03
   561)       905.866 1  Rx        03C2 -  8    80 00 00 02 C8 CA B5 16
   562)       906.208 1  Rx        0611 -  8    78 17 00 00 00 00 00 00
   563)       907.530 1  Rx        0445 -  8    91 21 0B 01 18 14 15 04
   564)       908.939 1  Tx        0700 -  8    01 00 00 00 A0 0F F1 00
   565)       909.194 1  Rx        0612 -  8    02 00 06 00 00 00 00 00
   566)       909.664 1  Rx        0463 -  8    BE 00 AA 00 B1 00 14 00
   567)       912.224 1  Rx        0614 -  8    00 00 FF FF 00 00 00 00
   568)       913.632 1  Rx        0472 -  8    02 0E ED 0D F6 0D 15 00
   569)       914.656 1  Rx        0464 -  8    00 00 40 00 00 00 00 00
   570)       915.210 1  Rx        0613 -  8    30 75 50 C3 30 75 50 C3
   571)       915.722 1  Rx        03C2 -  8    80 00 00 01 C8 CA B5 16
   572)       916.192 1  Rx        0611 -  8    78 17 00 00 00 00 00 00
   573)       918.197 1  Rx        0615 -  8    03 0E F2 0D F8 0D 10 00
   574)       921.226 1  Rx        0616 -  8    D2 00 AA 00 BE 00 28 00
   575)       921.653 1  Rx        0465 -  8    92 21 0A 01 18 11 1D 04
   576)       922.634 1  Rx        0473 -  8    BE 00 AF 00 B4 00 0F 00
   577)       923.274 1  Rx        0431 -  8    18 18 01 02 73 03 E8 03
   578)       924.213 1  Rx        0617 -  8    0A 05 CC 01 CC 01 4A 06
   579)       925.706 1  Rx        03C2 -  8    7F FF FF FF C8 CA B5 16
   580)       926.047 1  Rx        0421 -  8    18 18 01 02 73 03 E8 03
   581)       926.261 1  Rx        0611 -  8    78 17 00 00 00 00 00 00
   582)       927.626 1  Rx        0474 -  8    00 00 80 00 00 00 00 00
   583)       931.295 1  Rx        0432 -  8    F6 0D F0 0D F2 0D 06 00
   584)       934.026 1  Rx        0422 -  8    F9 0D ED 0D F3 0D 0C 00
   585)       934.623 1  Rx        0475 -  8    83 21 13 02 18 08 1D 04
   586)       935.775 1  Rx        03C2 -  8    80 00 00 03 C8 CA B5 16
   587)       936.245 1  Rx        0611 -  8    78 17 00 00 00 00 00 00
   588)       940.298 1  Rx        0433 -  8    BE 00 AC 00 B6 00 12 00
   589)       943.029 1  Rx        0423 -  8    BE 00 B0 00 B4 00 0E 00
   590)       945.290 1  Rx        0434 -  8    00 00 08 00 00 00 00 00
   591)       945.717 1  Rx        03C2 -  8    7F FF FF FF C8 CA B5 16
   592)       946.229 1  Rx        0611 -  8    78 17 00 00 00 00 00 00
   593)       948.020 1  Rx        0424 -  8    00 00 04 00 00 00 00 00
   594)       951.434 1  Rx        0451 -  8    18 18 01 02 73 03 E8 03
   595)       952.287 1  Rx        0435 -  8    7A 21 09 0A 18 08 15 04
   596)       955.018 1  Rx        0425 -  8    7B 21 18 0E 18 05 1D 04
   597)       955.743 1  Rx        03C2 -  8    80 00 00 02 C8 CA B5 16
   598)       956.255 1  Rx        0611 -  8    78 17 00 00 00 00 00 00
   599)       959.412 1  Rx        0452 -  8    03 0E F1 0D FD 0D 12 00
   600)       962.527 1  Rx        0411 -  8    18 18 01 02 73 03 E8 03
   601)       965.684 1  Rx        03C2 -  8    80 00 00 04 C8 CA B5 16
   602)       966.239 1  Rx        0611 -  8    78 17 00 00 00 00 00 00
   603)       968.415 1  Rx        0453 -  8    BE 00 AA 00 B2 00 14 00
   604)       970.548 1  Rx        0412 -  8    01 0E F2 0D F7 0D 0F 00
   605)       973.449 1  Rx        0454 -  8    00 00 20 00 00 00 20 00
   606)       975.711 1  Rx        03C2 -  8    80 00 00 00 C8 CA B5 16
   607)       976.265 1  Rx        0611 -  8    78 17 00 00 00 00 00 00
   608)       978.569 1  Rx        0441 -  8    18 18 01 02 73 03 E8 03
   609)       979.551 1  Rx        0413 -  8    D2 00 B4 00 BA 00 1E 00
   610)       980.404 1  Rx        0455 -  8    93 21 09 01 18 11 3D 04
   611)       984.585 1  Rx        0414 -  8    00 00 02 00 00 00 00 00
   612)       985.652 1  Rx        03C2 -  8    7F FF FF FF C8 CA B5 16
   613)       986.249 1  Rx        0611 -  8    78 17 00 00 00 00 00 00
   614)       986.591 1  Rx        0442 -  8    01 0E F1 0D FC 0D 10 00
   615)       991.582 1  Rx        0415 -  8    85 21 09 16 16 15 15 04
   616)       992.692 1  Rx        0461 -  8    18 18 01 02 73 03 E8 03
   617)       995.593 1  Rx        0443 -  8    BE 00 AA 00 AF 00 14 00
   618)       995.849 1  Rx        03C2 -  8    80 00 00 00 C8 CA B5 16
   619)       996.276 1  Rx        0611 -  8    78 17 00 00 00 00 00 00
   620)      1000.628 1  Rx        0444 -  8    00 00 10 00 00 00 00 00
   621)      1000.841 1  Rx        0462 -  8    02 0E EF 0D FC 0D 13 00
   622)      1005.577 1  Rx        0471 -  8    18 18 01 02 73 03 E8 03
   623)      1005.833 1  Rx        03C2 -  8    80 00 00 00 C8 CA B5 16
   624)      1006.302 1  Rx        0611 -  8    78 17 00 00 00 00 00 00
   625)      1007.582 1  Rx        0445 -  8    91 21 0B 01 18 14 15 04
   626)      1009.131 1  Tx        0700 -  8    01 00 00 00 A0 0F F1 00
   627)      1009.289 1  Rx        0612 -  8    02 00 06 00 00 00 00 00
   628)      1009.801 1  Rx        0463 -  8    BE 00 AA 00 B1 00 14 00
   629)      1012.275 1  Rx        0614 -  8    00 00 FF FF 00 00 00 00
   630)      1013.598 1  Rx        0472 -  8    02 0E ED 0D F6 0D 15 00
   631)      1014.707 1  Rx        0464 -  8    00 00 40 00 00 00 00 00
   632)      1015.262 1  Rx        0613 -  8    30 75 50 C3 30 75 50 C3
   633)      1015.646 1  Rx        03C2 -  8    80 00 00 00 C8 CA B5 16
   634)      1016.286 1  Rx        0611 -  8    78 17 00 00 00 00 00 00
   635)      1018.291 1  Rx        0615 -  8    03 0E F2 0D F8 0D 10 00
   636)      1021.278 1  Rx        0616 -  8    D2 00 AA 00 BE 00 28 00
   637)      1021.705 1  Rx        0465 -  8    92 21 0A 01 18 11 1D 04
   638)      1022.601 1  Rx        0473 -  8    BE 00 AF 00 B4 00 0F 00
   639)      1023.283 1  Rx        0431 -  8    18 18 01 02 73 03 E8 03
   640)      1024.307 1  Rx        0617 -  8    0A 05 CC 01 CC 01 4A 06
   641)      1025.673 1  Rx        03C2 -  8    80 00 00 03 C8 CA B5 16
   642)      1025.971 1  Rx        0421 -  8    18 18 01 02 73 03 E8 03
   643)      1026.313 1  Rx        0611 -  8    78 17 00 00 00 00 00 00
   644)      1027.593 1  Rx        0474 -  8    00 00 80 00 00 00 00 00
   645)      1031.305 1  Rx        0432 -  8    F6 0D F0 0D F2 0D 06 00
   646)      1033.950 1  Rx        0422 -  8    F9 0D ED 0D F3 0D 0C 00
   647)      1034.590 1  Rx        0475 -  8    83 21 13 02 18 08 1D 04
   648)      1035.656 1  Rx        03C2 -  8    7F FF FF FE C8 CA B5 16
   649)      1036.296 1  Rx        0611 -  8    78 17 00 00 00 00 00 00
   650)      1040.307 1  Rx        0433 -  8    BE 00 AC 00 B6 00 12 00
   651)      1042.995 1  Rx        0423 -  8    BE 00 B0 00 B4 00 0E 00
   652)      1045.299 1  Rx        0434 -  8    00 00 08 00 00 00 00 00
   653)      1045.640 1  Rx        03C2 -  8    7F FF FF FF C8 CA B5 16
   654)      1046.323 1  Rx        0611 -  8    78 17 00 00 00 00 00 00
   655)      1047.987 1  Rx        0424 -  8    00 00 04 00 00 00 00 00
   656)      1051.400 1  Rx        0451 -  8    18 18 01 02 73 03 E8 03
   657)      1052.296 1  Rx        0435 -  8    7A 21 09 0A 18 08 15 04
   658)      1054.941 1  Rx        0425 -  8    7B 21 18 0E 18 05 1D 04
   659)      1055.667 1  Rx        03C2 -  8    80 00 00 00 C8 CA B5 16
   660)      1056.349 1  Rx        0611 -  8    78 17 00 00 00 00 00 00
   661)      1059.379 1  Rx        0452 -  8    03 0E F1 0D FD 0D 12 00
   662)      1062.621 1  Rx        0411 -  8    18 18 01 02 73 03 E8 03
   663)      1065.736 1  Rx        03C2 -  8    80 00 00 02 C8 CA B5 16
   664)      1066.333 1  Rx        0611 -  8    78 17 00 00 00 00 00 00
   665)      1068.381 1  Rx        0453 -  8    BE 00 AA 00 B2 00 14 00
   666)      1070.643 1  Rx        0412 -  8    01 0E F2 0D F7 0D 0F 00
   667)      1073.416 1  Rx        0454 -  8    00 00 20 00 00 00 20 00
   668)      1075.634 1  Rx        03C2 -  8    80 00 00 05 C8 CA B5 16
   669)      1076.360 1  Rx        0611 -  8    78 17 00 00 00 00 00 00
   670)      1078.664 1  Rx        0441 -  8    18 18 01 02 73 03 E8 03
   671)      1079.645 1  Rx        0413 -  8    D2 00 B4 00 BA 00 1E 00
   672)      1080.370 1  Rx        0455 -  8    93 21 09 01 18 11 3D 04
   673)      1084.680 1  Rx        0414 -  8    00 00 02 00 00 00 00 00
   674)      1085.661 1  Rx        03C2 -  8    7F FF FF FD C8 CA B5 16
   675)      1086.344 1  Rx        0611 -  8    78 17 00 00 00 00 00 00
   676)      1086.685 1  Rx        0442 -  8    01 0E F1 0D FC 0D 10 00
   677)      1091.677 1  Rx        0415 -  8    85 21 09 16 16 15 15 04
   678)      1092.786 1  Rx        0461 -  8    18 18 01 02 73 03 E8 03
   679)      1095.645 1  Rx        03C2 -  8    80 00 00 01 C8 CA B5 16
   680)      1095.901 1  Rx        0443 -  8    BE 00 AA 00 AF 00 14 00
   681)      1096.370 1  Rx        0611 -  8    78 17 00 00 00 00 00 00
   682)      1100.679 1  Rx        0444 -  8    00 00 10 00 00 00 00 00
   683)      1100.935 1  Rx        0462 -  8    02 0E EF 0D FC 0D 13 00
   684)      1105.543 1  Rx        0471 -  8    18 18 01 02 73 03 E8 03
